T25870 000:008.679   SEGGER J-Link V7.92k Log File
T25870 000:008.900   DLL Compiled: Oct 18 2023 14:58:31
T25870 000:008.913   Logging started @ 2026-06-05 08:52
T25870 000:008.925   Process: C:\Keil_v5\UV4\UV4.exe
T25870 000:008.944 - 8.939ms
T25870 000:008.964 JLINK_SetWarnOutHandler(...)
T25870 000:008.976 - 0.015ms
T25870 000:008.990 JLINK_OpenEx(...)
T25870 000:011.002   Firmware: J-Link Lite-XMC4200 Rev.1 compiled Mar 22 2024 08:22:08
T25870 000:011.403   Firmware: J-Link Lite-XMC4200 Rev.1 compiled Mar 22 2024 08:22:08
T25870 000:031.383   Hardware: V1.00
T25870 000:031.414   S/N: 591186405
T25870 000:031.427   OEM: SEGGER
T25870 000:031.446   Feature(s): None
T25870 000:032.263   Bootloader: 2012 Oct 05
T25870 000:032.762   USB speed mode: Full speed (12 MBit/s)
T25870 000:033.212   TELNET listener socket opened on port 19021
T25870 000:033.414   WEBSRV WEBSRV_Init(): Starting webserver thread(s)
T25870 000:033.694   WEBSRV Webserver running on local port 19080
T25870 000:033.939   Looking for J-Link GUI Server exe at: C:\Keil_v5\ARM\Segger\JLinkGUIServer.exe
T25870 000:034.138   Looking for J-Link GUI Server exe at: \JLinkGUIServer.exe
T25870 000:335.854   Failed to connect to J-Link GUI Server.
T25870 000:335.923 - 326.915ms returns "O.K."
T25870 000:335.947 JLINK_GetEmuCaps()
T25870 000:335.968 - 0.018ms returns 0xB8EA5A33
T25870 000:335.983 JLINK_TIF_GetAvailable(...)
T25870 000:336.210 - 0.226ms
T25870 000:336.240 JLINK_SetErrorOutHandler(...)
T25870 000:336.251 - 0.011ms
T25870 000:336.301 JLINK_ExecCommand("ProjectFile = "D:\SVN\RLNE11\Trunk\20260601_IO\21us_library_project\SWSC_RLNE11_S0700_0X00_H04\JLinkSettings.ini"", ...). 
T25870 000:375.765   Device "CORTEX-M23" selected.
T25870 000:379.986 - 43.685ms returns 0x00
T25870 000:382.516 JLINK_ExecCommand("Device = TLD4020-3ET", ...). 
T25870 000:384.991   Device "CORTEX-M23" selected.
T25870 000:389.203 - 6.649ms returns 0x00
T25870 000:389.247 JLINK_ExecCommand("DisableConnectionTimeout", ...). 
T25870 000:389.266 - 0.002ms returns 0x01
T25870 000:389.282 JLINK_GetHardwareVersion()
T25870 000:389.294 - 0.012ms returns 10000
T25870 000:389.319 JLINK_GetDLLVersion()
T25870 000:389.329 - 0.009ms returns 79211
T25870 000:389.339 JLINK_GetOEMString(...)
T25870 000:389.349 JLINK_GetFirmwareString(...)
T25870 000:389.359 - 0.009ms
T25870 000:399.409 JLINK_GetDLLVersion()
T25870 000:399.450 - 0.040ms returns 79211
T25870 000:399.463 JLINK_GetCompileDateTime()
T25870 000:399.474 - 0.011ms
T25870 000:402.696 JLINK_GetFirmwareString(...)
T25870 000:402.740 - 0.044ms
T25870 000:405.615 JLINK_GetHardwareVersion()
T25870 000:405.651 - 0.036ms returns 10000
T25870 000:408.315 JLINK_GetSN()
T25870 000:408.352 - 0.037ms returns 591186405
T25870 000:412.926 JLINK_GetOEMString(...)
T25870 000:415.581 JLINK_TIF_Select(JLINKARM_TIF_SWD)
T25870 000:416.396 - 0.814ms returns 0x00
T25870 000:416.427 JLINK_HasError()
T25870 000:416.457 JLINK_SetSpeed(5000)
T25870 000:416.609 - 0.153ms
T25870 000:416.641 JLINK_GetId()
T25870 000:522.973   Failed to attach to CPU. Trying connect under reset.
T25870 000:733.969   Found SW-DP with ID 0x0BF11477
T25870 000:737.772   SWD speed too high. Reduced from 3000 kHz to 1138 kHz for stability
T25870 000:743.639   DPIDR: 0x0BF11477
T25870 000:746.012   CoreSight SoC-400 or earlier
T25870 000:748.174   Scanning AP map to find all available APs
T25870 000:752.508   AP[1]: Stopped AP scan as end of AP map has been reached
T25870 000:754.792   AP[0]: AHB-AP (IDR: 0x04770025)
T25870 000:757.590   Iterating through AP map to find AHB-AP to use
T25870 000:762.312   AP[0]: Core found
T25870 000:764.922   AP[0]: AHB-AP ROM base: 0x40012000
T25870 000:768.177   CPUID register: 0x411CD200. Implementer code: 0x41 (ARM)
T25870 000:772.267   Feature set: Baseline
T25870 000:776.048   Cache: No cache
T25870 000:779.183   Found Cortex-M23 r1p0, Little endian.
T25870 000:779.755   -- Max. mem block: 0x000036C0
T25870 000:780.563   CPU_ReadMem(4 bytes @ 0xE000EDF0)
T25870 000:781.354   CPU_WriteMem(4 bytes @ 0xE000EDF0)
T25870 000:781.982   CPU_ReadMem(4 bytes @ 0xE0002000)
T25870 000:786.589   FPUnit: 4 code (BP) slots and 0 literal slots
T25870 000:786.666   CPU_ReadMem(4 bytes @ 0xE000EDFC)
T25870 000:787.234   CPU_WriteMem(4 bytes @ 0xE000EDFC)
T25870 000:787.802   CPU_ReadMem(4 bytes @ 0xE0001000)
T25870 000:788.345   CPU_ReadMem(4 bytes @ 0xE0001000)
T25870 000:788.921   CPU_ReadMem(4 bytes @ 0xE0001028)
T25870 000:789.429   CPU_ReadMem(4 bytes @ 0xE0001038)
T25870 000:789.951   CPU_WriteMem(4 bytes @ 0xE0001000)
T25870 000:790.499   CPU_ReadMem(4 bytes @ 0xE000ED88)
T25870 000:790.997   CPU_WriteMem(4 bytes @ 0xE000ED88)
T25870 000:791.590   CPU_ReadMem(4 bytes @ 0xE000ED88)
T25870 000:792.094   CPU_WriteMem(4 bytes @ 0xE000ED88)
T25870 000:792.640   CPU_ReadMem(4 bytes @ 0xE000EFB8)
T25870 000:796.987   Security extension: not implemented
T25870 000:799.928   CoreSight components:
T25870 000:806.109   ROMTbl[0] @ 40012000
T25870 000:806.153   CPU_ReadMem(64 bytes @ 0x40012000)
T25870 000:807.377   CPU_ReadMem(32 bytes @ 0xE00FFFE0)
T25870 000:811.238   [0][0]: E00FF000 CID B105100D PID 000BB4CB ROM Table
T25870 000:815.391   ROMTbl[1] @ E00FF000
T25870 000:815.451   CPU_ReadMem(64 bytes @ 0xE00FF000)
T25870 000:816.668   CPU_ReadMem(32 bytes @ 0xE000EFE0)
T25870 000:817.526   CPU_ReadMem(4 bytes @ 0xE000EFBC)
T25870 000:818.068   CPU_ReadMem(4 bytes @ 0xE000EFCC)
T25870 000:822.228   [1][0]: E000E000 CID B105900D PID 000BBD20 DEVARCH 47702A04 DEVTYPE 00 Cortex-M23
T25870 000:822.285   CPU_ReadMem(32 bytes @ 0xE0001FE0)
T25870 000:823.145   CPU_ReadMem(4 bytes @ 0xE0001FBC)
T25870 000:823.681   CPU_ReadMem(4 bytes @ 0xE0001FCC)
T25870 000:827.359   [1][1]: E0001000 CID B105900D PID 000BBD20 DEVARCH 47701A02 DEVTYPE 00 DWT
T25870 000:827.430   CPU_ReadMem(32 bytes @ 0xE0002FE0)
T25870 000:828.281   CPU_ReadMem(4 bytes @ 0xE0002FBC)
T25870 000:828.820   CPU_ReadMem(4 bytes @ 0xE0002FCC)
T25870 000:832.772   [1][2]: E0002000 CID B105900D PID 000BBD20 DEVARCH 47701A03 DEVTYPE 00 FPB
T25870 000:833.212 - 416.569ms returns 0x0BF11477
T25870 000:833.308 JLINK_GetDLLVersion()
T25870 000:833.334 - 0.024ms returns 79211
T25870 000:833.349 JLINK_CORE_GetFound()
T25870 000:833.362 - 0.012ms returns 0x60100FF
T25870 000:833.390 JLINK_GetDebugInfo(0x100 = JLINKARM_ROM_TABLE_ADDR_INDEX)
T25870 000:833.406   Value=0x40012000
T25870 000:833.424 - 0.034ms returns 0
T25870 000:836.434 JLINK_GetDebugInfo(0x100 = JLINKARM_ROM_TABLE_ADDR_INDEX)
T25870 000:836.482   Value=0x40012000
T25870 000:836.501 - 0.068ms returns 0
T25870 000:836.512 JLINK_GetDebugInfo(0x101 = JLINKARM_DEBUG_INFO_ETM_ADDR_INDEX)
T25870 000:836.522   Value=0x00000000
T25870 000:836.535 - 0.023ms returns 0
T25870 000:836.547 JLINK_ReadMemEx(0xE0041FF0, 0x10 Bytes, Flags = 0x02000004)
T25870 000:836.640   CPU_ReadMem(16 bytes @ 0xE0041FF0)
T25870 000:837.426   failed
T25870 000:837.454 - 0.906ms returns -1 (0xFFFFFFFF)
T25870 000:837.468 JLINK_GetDebugInfo(0x102 = JLINKARM_DEBUG_INFO_MTB_ADDR_INDEX)
T25870 000:837.479   Value=0x00000000
T25870 000:837.496 - 0.028ms returns 0
T25870 000:837.506 JLINK_GetDebugInfo(0x103 = JLINKARM_DEBUG_INFO_TPIU_ADDR_INDEX)
T25870 000:837.516   Value=0x00000000
T25870 000:837.529 - 0.023ms returns 0
T25870 000:837.539 JLINK_ReadMemEx(0xE0040FF0, 0x10 Bytes, Flags = 0x02000004)
T25870 000:837.559   CPU_ReadMem(16 bytes @ 0xE0040FF0)
T25870 000:838.179   failed
T25870 000:838.205 - 0.665ms returns -1 (0xFFFFFFFF)
T25870 000:838.218 JLINK_GetDebugInfo(0x104 = JLINKARM_DEBUG_INFO_ITM_ADDR_INDEX)
T25870 000:838.228   Value=0xE0000000
T25870 000:838.242 - 0.024ms returns 0
T25870 000:838.252 JLINK_GetDebugInfo(0x105 = JLINKARM_DEBUG_INFO_DWT_ADDR_INDEX)
T25870 000:838.261   Value=0xE0001000
T25870 000:838.274 - 0.022ms returns 0
T25870 000:838.285 JLINK_GetDebugInfo(0x106 = JLINKARM_DEBUG_INFO_FPB_ADDR_INDEX)
T25870 000:838.294   Value=0xE0002000
T25870 000:838.307 - 0.022ms returns 0
T25870 000:838.317 JLINK_GetDebugInfo(0x107 = JLINKARM_DEBUG_INFO_NVIC_ADDR_INDEX)
T25870 000:838.330   Value=0xE000E000
T25870 000:838.346 - 0.028ms returns 0
T25870 000:838.355 JLINK_GetDebugInfo(0x10C = JLINKARM_DEBUG_INFO_DBG_ADDR_INDEX)
T25870 000:838.365   Value=0xE000EDF0
T25870 000:838.379 - 0.023ms returns 0
T25870 000:838.395 JLINK_GetDebugInfo(0x01 = Unknown)
T25870 000:838.404   Value=0x00000000
T25870 000:838.418 - 0.028ms returns 0
T25870 000:838.429 JLINK_ReadMemU32(0xE000ED00, 0x1 Items)
T25870 000:838.443   CPU_ReadMem(4 bytes @ 0xE000ED00)
T25870 000:838.931   Data:  00 D2 1C 41
T25870 000:838.957   Debug reg: CPUID
T25870 000:838.971 - 0.541ms returns 1 (0x1)
T25870 000:838.983 JLINK_GetDebugInfo(0x10F = JLINKARM_DEBUG_INFO_HAS_CORTEX_M_SECURITY_EXT_INDEX)
T25870 000:838.993   Value=0x00000000
T25870 000:839.007 - 0.024ms returns 0
T25870 000:839.018 JLINK_ReadMemEx(0xE000ED74, 0x4 Bytes, Flags = 0x02000004)
T25870 000:839.031   CPU_ReadMem(4 bytes @ 0xE000ED74)
T25870 000:839.552   Data:  00 00 00 00
T25870 000:839.579 - 0.560ms returns 4 (0x4)
T25870 000:842.702 JLINK_HasError()
T25870 000:842.750 JLINK_SetResetType(JLINKARM_CM3_RESET_TYPE_NORMAL)
T25870 000:842.766 - 0.015ms returns JLINKARM_CM3_RESET_TYPE_NORMAL
T25870 000:842.780 JLINK_Reset()
T25870 000:842.839   CPU is running
T25870 000:842.862   CPU_WriteMem(4 bytes @ 0xE000EDF0)
T25870 000:843.457   CPU_ReadMem(4 bytes @ 0xE000ED44)
T25870 000:843.975   CPU is running
T25870 000:844.005   CPU_WriteMem(4 bytes @ 0xE000EDFC)
T25870 000:847.116   Reset: Halt core after reset via DEMCR.VC_CORERESET.
T25870 000:850.193   Reset: Reset device via AIRCR.SYSRESETREQ.
T25870 000:850.232   CPU is running
T25870 000:850.250   CPU_WriteMem(4 bytes @ 0xE000ED0C)
T25870 000:904.591   CPU_ReadMem(4 bytes @ 0xE000EDF0)
T25870 000:905.139   CPU_ReadMem(4 bytes @ 0xE000EDF0)
T25870 000:910.860   CPU_WriteMem(4 bytes @ 0xE000EDFC)
T25870 000:917.495   CPU_ReadMem(4 bytes @ 0xE000EDF0)
T25870 000:923.200   CPU_ReadMem(4 bytes @ 0xE000EE08)
T25870 000:923.732   CPU_WriteMem(4 bytes @ 0xE0002000)
T25870 000:924.287   CPU_ReadMem(4 bytes @ 0xE000EDFC)
T25870 000:924.795   CPU_ReadMem(4 bytes @ 0xE0001000)
T25870 000:925.282   CPU_WriteMem(4 bytes @ 0xE0001000)
T25870 000:925.799   CPU_ReadMem(4 bytes @ 0xE000EE08)
T25870 000:926.312 - 83.530ms
T25870 000:926.397 JLINK_Halt()
T25870 000:926.407 - 0.010ms returns 0x00
T25870 000:926.418 JLINK_ReadMemU32(0xE000EDF0, 0x1 Items)
T25870 000:926.435   CPU_ReadMem(4 bytes @ 0xE000EDF0)
T25870 000:926.923   Data:  03 00 03 00
T25870 000:926.946   Debug reg: DHCSR
T25870 000:926.960 - 0.541ms returns 1 (0x1)
T25870 000:926.976 JLINK_WriteU32_64(0xE000EDF0, 0xA05F0003)
T25870 000:926.986   Debug reg: DHCSR
T25870 000:927.235   CPU_WriteMem(4 bytes @ 0xE000EDF0)
T25870 000:927.771 - 0.797ms returns 0 (0x00000000)
T25870 000:927.795 JLINK_WriteU32_64(0xE000EDFC, 0x01000000)
T25870 000:927.808   Debug reg: DEMCR
T25870 000:927.828   CPU_WriteMem(4 bytes @ 0xE000EDFC)
T25870 000:928.339 - 0.543ms returns 0 (0x00000000)
T25870 000:942.248 JLINK_GetHWStatus(...)
T25870 000:942.500 - 0.251ms returns 0
T25870 000:949.091 JLINK_GetNumBPUnits(Type = 0xFFFFFF00)
T25870 000:949.126 - 0.035ms returns 0x04
T25870 000:949.137 JLINK_GetNumBPUnits(Type = 0xF0)
T25870 000:949.147 - 0.009ms returns 0x2000
T25870 000:949.157 JLINK_GetNumWPUnits()
T25870 000:949.166 - 0.009ms returns 2
T25870 000:956.952 JLINK_GetSpeed()
T25870 000:956.995 - 0.042ms returns 1072
T25870 000:967.371 JLINK_ReadMemU32(0xE000E004, 0x1 Items)
T25870 000:967.417   CPU_ReadMem(4 bytes @ 0xE000E004)
T25870 000:967.991   Data:  00 00 00 00
T25870 000:968.037 - 0.666ms returns 1 (0x1)
T25870 000:968.057 JLINK_ReadMemU32(0xE000E004, 0x1 Items)
T25870 000:968.078   CPU_ReadMem(4 bytes @ 0xE000E004)
T25870 000:968.591   Data:  00 00 00 00
T25870 000:968.618 - 0.561ms returns 1 (0x1)
T25870 000:968.635 JLINK_Halt()
T25870 000:968.645 - 0.009ms returns 0x00
T25870 000:968.655 JLINK_IsHalted()
T25870 000:968.667 - 0.011ms returns TRUE
T25870 000:975.552 JLINK_WriteMem(0x18000000, 0xA4 Bytes, ...)
T25870 000:975.582   Data:  00 BE 0A E0 0D 78 2D 06 68 40 08 24 40 00 00 D3 ...
T25870 000:975.827   CPU_WriteMem(164 bytes @ 0x18000000)
T25870 000:978.353 - 2.800ms returns 0xA4
T25870 000:978.435 JLINK_HasError()
T25870 000:978.449 JLINK_WriteReg(R0, 0x12000000)
T25870 000:978.468   CPU_ReadMem(4 bytes @ 0xE000EE08)
T25870 000:978.960 - 0.510ms returns 0
T25870 000:978.988 JLINK_WriteReg(R1, 0x00B71B00)
T25870 000:979.004 - 0.015ms returns 0
T25870 000:979.015 JLINK_WriteReg(R2, 0x00000001)
T25870 000:979.025 - 0.010ms returns 0
T25870 000:979.036 JLINK_WriteReg(R3, 0x00000000)
T25870 000:979.047 - 0.011ms returns 0
T25870 000:979.059 JLINK_WriteReg(R4, 0x00000000)
T25870 000:979.073 - 0.014ms returns 0
T25870 000:979.087 JLINK_WriteReg(R5, 0x00000000)
T25870 000:979.101 - 0.013ms returns 0
T25870 000:979.117 JLINK_WriteReg(R6, 0x00000000)
T25870 000:979.127 - 0.010ms returns 0
T25870 000:979.138 JLINK_WriteReg(R7, 0x00000000)
T25870 000:979.148 - 0.010ms returns 0
T25870 000:979.168 JLINK_WriteReg(R8, 0x00000000)
T25870 000:979.179 - 0.020ms returns 0
T25870 000:979.191 JLINK_WriteReg(R9, 0x180000A0)
T25870 000:979.201 - 0.010ms returns 0
T25870 000:979.211 JLINK_WriteReg(R10, 0x00000000)
T25870 000:979.222 - 0.010ms returns 0
T25870 000:979.233 JLINK_WriteReg(R11, 0x00000000)
T25870 000:979.244 - 0.010ms returns 0
T25870 000:979.254 JLINK_WriteReg(R12, 0x00000000)
T25870 000:979.265 - 0.010ms returns 0
T25870 000:979.276 JLINK_WriteReg(R13 (SP), 0x18000800)
T25870 000:979.288 - 0.012ms returns 0
T25870 000:979.299 JLINK_WriteReg(R14, 0x18000001)
T25870 000:979.310 - 0.010ms returns 0
T25870 000:979.327 JLINK_WriteReg(R15 (PC), 0x18000020)
T25870 000:979.339 - 0.016ms returns 0
T25870 000:979.350 JLINK_WriteReg(XPSR, 0x01000000)
T25870 000:979.360 - 0.010ms returns 0
T25870 000:979.371 JLINK_WriteReg(MSP, 0x18000800)
T25870 000:979.381 - 0.010ms returns 0
T25870 000:979.392 JLINK_WriteReg(PSP, 0x18000800)
T25870 000:979.402 - 0.010ms returns 0
T25870 000:979.412 JLINK_WriteReg(CFBP, 0x00000000)
T25870 000:979.422 - 0.010ms returns 0
T25870 000:979.434 JLINK_SetBPEx(Addr = 0x18000000, Type = 0xFFFFFFF2)
T25870 000:979.445 - 0.011ms returns 0x00000001
T25870 000:979.456 JLINK_Go()
T25870 000:979.473   CPU_WriteMem(4 bytes @ 0xE0002000)
T25870 000:980.114   CPU_ReadMem(4 bytes @ 0xE0001000)
T25870 000:980.642   CPU_WriteMem(4 bytes @ 0xE0001000)
T25870 000:981.213   CPU_WriteMem(4 bytes @ 0xE0002008)
T25870 000:981.241   CPU_WriteMem(4 bytes @ 0xE000200C)
T25870 000:981.256   CPU_WriteMem(4 bytes @ 0xE0002010)
T25870 000:981.306   CPU_WriteMem(4 bytes @ 0xE0002014)
T25870 000:983.097   CPU_WriteMem(4 bytes @ 0xE0001004)
T25870 000:994.333   Memory map 'after startup completion point' is active
T25870 000:994.376 - 14.920ms
T25870 000:994.393 JLINK_IsHalted()
T25870 000:999.542 - 5.147ms returns TRUE
T25870 000:999.613 JLINK_ReadReg(R15 (PC))
T25870 000:999.637   CPU_ReadMem(4 bytes @ 0xE000EE08)
T25870 001:000.192 - 0.578ms returns 0x18000000
T25870 001:000.219 JLINK_ClrBPEx(BPHandle = 0x00000001)
T25870 001:000.233 - 0.013ms returns 0x00
T25870 001:000.247 JLINK_ReadReg(R0)
T25870 001:000.262 - 0.014ms returns 0x00000000
T25870 001:001.197 JLINK_HasError()
T25870 001:001.234 JLINK_WriteReg(R0, 0x12000000)
T25870 001:001.258 - 0.023ms returns 0
T25870 001:001.272 JLINK_WriteReg(R1, 0x00000800)
T25870 001:001.287 - 0.014ms returns 0
T25870 001:001.298 JLINK_WriteReg(R2, 0x000000FF)
T25870 001:001.313 - 0.014ms returns 0
T25870 001:001.327 JLINK_WriteReg(R3, 0x00000000)
T25870 001:001.344 - 0.017ms returns 0
T25870 001:001.358 JLINK_WriteReg(R4, 0x00000000)
T25870 001:001.372 - 0.013ms returns 0
T25870 001:001.386 JLINK_WriteReg(R5, 0x00000000)
T25870 001:001.400 - 0.014ms returns 0
T25870 001:001.413 JLINK_WriteReg(R6, 0x00000000)
T25870 001:001.427 - 0.013ms returns 0
T25870 001:001.440 JLINK_WriteReg(R7, 0x00000000)
T25870 001:001.453 - 0.012ms returns 0
T25870 001:001.466 JLINK_WriteReg(R8, 0x00000000)
T25870 001:001.480 - 0.014ms returns 0
T25870 001:001.577 JLINK_WriteReg(R9, 0x180000A0)
T25870 001:001.592 - 0.015ms returns 0
T25870 001:001.627 JLINK_WriteReg(R10, 0x00000000)
T25870 001:001.642 - 0.015ms returns 0
T25870 001:001.656 JLINK_WriteReg(R11, 0x00000000)
T25870 001:001.670 - 0.013ms returns 0
T25870 001:001.684 JLINK_WriteReg(R12, 0x00000000)
T25870 001:001.699 - 0.015ms returns 0
T25870 001:001.722 JLINK_WriteReg(R13 (SP), 0x18000800)
T25870 001:001.738 - 0.015ms returns 0
T25870 001:001.751 JLINK_WriteReg(R14, 0x18000001)
T25870 001:001.766 - 0.014ms returns 0
T25870 001:001.779 JLINK_WriteReg(R15 (PC), 0x18000084)
T25870 001:001.793 - 0.013ms returns 0
T25870 001:001.812 JLINK_WriteReg(XPSR, 0x01000000)
T25870 001:001.826 - 0.014ms returns 0
T25870 001:001.839 JLINK_WriteReg(MSP, 0x18000800)
T25870 001:001.856 - 0.016ms returns 0
T25870 001:001.872 JLINK_WriteReg(PSP, 0x18000800)
T25870 001:001.886 - 0.014ms returns 0
T25870 001:001.901 JLINK_WriteReg(CFBP, 0x00000000)
T25870 001:001.916 - 0.015ms returns 0
T25870 001:001.933 JLINK_SetBPEx(Addr = 0x18000000, Type = 0xFFFFFFF2)
T25870 001:001.950 - 0.017ms returns 0x00000002
T25870 001:001.964 JLINK_Go()
T25870 001:001.982   CPU_WriteMem(4 bytes @ 0xE0002000)
T25870 001:002.676   CPU_ReadMem(4 bytes @ 0xE0001000)
T25870 001:008.312 - 6.347ms
T25870 001:008.347 JLINK_IsHalted()
T25870 001:013.473 - 5.124ms returns TRUE
T25870 001:013.514 JLINK_ReadReg(R15 (PC))
T25870 001:013.534   CPU_ReadMem(4 bytes @ 0xE000EE08)
T25870 001:014.065 - 0.549ms returns 0x18000000
T25870 001:014.089 JLINK_ClrBPEx(BPHandle = 0x00000002)
T25870 001:014.108 - 0.018ms returns 0x00
T25870 001:014.124 JLINK_ReadReg(R0)
T25870 001:014.135 - 0.011ms returns 0x00000001
T25870 001:014.149 JLINK_HasError()
T25870 001:014.161 JLINK_WriteReg(R0, 0x12000000)
T25870 001:014.174 - 0.012ms returns 0
T25870 001:014.186 JLINK_WriteReg(R1, 0x00000800)
T25870 001:014.196 - 0.010ms returns 0
T25870 001:014.208 JLINK_WriteReg(R2, 0x000000FF)
T25870 001:014.219 - 0.010ms returns 0
T25870 001:014.231 JLINK_WriteReg(R3, 0x00000000)
T25870 001:014.241 - 0.010ms returns 0
T25870 001:014.253 JLINK_WriteReg(R4, 0x00000000)
T25870 001:014.264 - 0.010ms returns 0
T25870 001:014.276 JLINK_WriteReg(R5, 0x00000000)
T25870 001:014.287 - 0.010ms returns 0
T25870 001:014.299 JLINK_WriteReg(R6, 0x00000000)
T25870 001:014.310 - 0.010ms returns 0
T25870 001:014.322 JLINK_WriteReg(R7, 0x00000000)
T25870 001:014.332 - 0.010ms returns 0
T25870 001:014.344 JLINK_WriteReg(R8, 0x00000000)
T25870 001:014.355 - 0.010ms returns 0
T25870 001:014.367 JLINK_WriteReg(R9, 0x180000A0)
T25870 001:014.377 - 0.010ms returns 0
T25870 001:014.389 JLINK_WriteReg(R10, 0x00000000)
T25870 001:014.400 - 0.010ms returns 0
T25870 001:014.412 JLINK_WriteReg(R11, 0x00000000)
T25870 001:014.422 - 0.010ms returns 0
T25870 001:014.434 JLINK_WriteReg(R12, 0x00000000)
T25870 001:014.445 - 0.010ms returns 0
T25870 001:014.457 JLINK_WriteReg(R13 (SP), 0x18000800)
T25870 001:014.468 - 0.011ms returns 0
T25870 001:014.480 JLINK_WriteReg(R14, 0x18000001)
T25870 001:014.491 - 0.011ms returns 0
T25870 001:014.503 JLINK_WriteReg(R15 (PC), 0x18000058)
T25870 001:014.514 - 0.011ms returns 0
T25870 001:014.526 JLINK_WriteReg(XPSR, 0x01000000)
T25870 001:014.540 - 0.014ms returns 0
T25870 001:014.556 JLINK_WriteReg(MSP, 0x18000800)
T25870 001:014.570 - 0.014ms returns 0
T25870 001:014.584 JLINK_WriteReg(PSP, 0x18000800)
T25870 001:014.599 - 0.015ms returns 0
T25870 001:014.616 JLINK_WriteReg(CFBP, 0x00000000)
T25870 001:014.632 - 0.015ms returns 0
T25870 001:014.650 JLINK_SetBPEx(Addr = 0x18000000, Type = 0xFFFFFFF2)
T25870 001:014.667 - 0.017ms returns 0x00000003
T25870 001:014.685 JLINK_Go()
T25870 001:014.704   CPU_WriteMem(4 bytes @ 0xE0002000)
T25870 001:015.241   CPU_ReadMem(4 bytes @ 0xE0001000)
T25870 001:020.839 - 6.153ms
T25870 001:020.883 JLINK_IsHalted()
T25870 001:021.425 - 0.541ms returns FALSE
T25870 001:021.457 JLINK_HasError()
T25870 001:050.787 JLINK_IsHalted()
T25870 001:056.118 - 5.329ms returns TRUE
T25870 001:056.165 JLINK_ReadReg(R15 (PC))
T25870 001:056.189   CPU_ReadMem(4 bytes @ 0xE000EE08)
T25870 001:056.746 - 0.579ms returns 0x18000000
T25870 001:056.778 JLINK_ClrBPEx(BPHandle = 0x00000003)
T25870 001:056.798 - 0.020ms returns 0x00
T25870 001:056.817 JLINK_ReadReg(R0)
T25870 001:056.837 - 0.019ms returns 0x00000000
T25870 001:057.957 JLINK_HasError()
T25870 001:057.998 JLINK_WriteReg(R0, 0x12000800)
T25870 001:058.023 - 0.025ms returns 0
T25870 001:058.038 JLINK_WriteReg(R1, 0x00000800)
T25870 001:058.054 - 0.015ms returns 0
T25870 001:058.069 JLINK_WriteReg(R2, 0x000000FF)
T25870 001:058.086 - 0.016ms returns 0
T25870 001:058.103 JLINK_WriteReg(R3, 0x00000000)
T25870 001:058.173 - 0.069ms returns 0
T25870 001:058.188 JLINK_WriteReg(R4, 0x00000000)
T25870 001:058.209 - 0.021ms returns 0
T25870 001:058.228 JLINK_WriteReg(R5, 0x00000000)
T25870 001:058.244 - 0.015ms returns 0
T25870 001:058.303 JLINK_WriteReg(R6, 0x00000000)
T25870 001:058.319 - 0.016ms returns 0
T25870 001:058.337 JLINK_WriteReg(R7, 0x00000000)
T25870 001:058.352 - 0.015ms returns 0
T25870 001:058.367 JLINK_WriteReg(R8, 0x00000000)
T25870 001:058.388 - 0.021ms returns 0
T25870 001:058.403 JLINK_WriteReg(R9, 0x180000A0)
T25870 001:058.419 - 0.016ms returns 0
T25870 001:058.435 JLINK_WriteReg(R10, 0x00000000)
T25870 001:058.451 - 0.015ms returns 0
T25870 001:058.467 JLINK_WriteReg(R11, 0x00000000)
T25870 001:058.483 - 0.015ms returns 0
T25870 001:058.498 JLINK_WriteReg(R12, 0x00000000)
T25870 001:058.514 - 0.015ms returns 0
T25870 001:058.529 JLINK_WriteReg(R13 (SP), 0x18000800)
T25870 001:058.546 - 0.017ms returns 0
T25870 001:058.562 JLINK_WriteReg(R14, 0x18000001)
T25870 001:058.578 - 0.015ms returns 0
T25870 001:058.593 JLINK_WriteReg(R15 (PC), 0x18000084)
T25870 001:058.608 - 0.014ms returns 0
T25870 001:058.628 JLINK_WriteReg(XPSR, 0x01000000)
T25870 001:058.644 - 0.015ms returns 0
T25870 001:058.659 JLINK_WriteReg(MSP, 0x18000800)
T25870 001:058.674 - 0.014ms returns 0
T25870 001:058.704 JLINK_WriteReg(PSP, 0x18000800)
T25870 001:058.734 - 0.028ms returns 0
T25870 001:058.770 JLINK_WriteReg(CFBP, 0x00000000)
T25870 001:058.788 - 0.017ms returns 0
T25870 001:058.804 JLINK_SetBPEx(Addr = 0x18000000, Type = 0xFFFFFFF2)
T25870 001:058.821 - 0.017ms returns 0x00000004
T25870 001:058.836 JLINK_Go()
T25870 001:058.856   CPU_WriteMem(4 bytes @ 0xE0002000)
T25870 001:059.468   CPU_ReadMem(4 bytes @ 0xE0001000)
T25870 001:065.158 - 6.320ms
T25870 001:065.205 JLINK_IsHalted()
T25870 001:070.605 - 5.398ms returns TRUE
T25870 001:070.644 JLINK_ReadReg(R15 (PC))
T25870 001:070.669   CPU_ReadMem(4 bytes @ 0xE000EE08)
T25870 001:071.202 - 0.557ms returns 0x18000000
T25870 001:071.268 JLINK_ClrBPEx(BPHandle = 0x00000004)
T25870 001:071.290 - 0.022ms returns 0x00
T25870 001:071.316 JLINK_ReadReg(R0)
T25870 001:071.342 - 0.027ms returns 0x00000001
T25870 001:071.360 JLINK_HasError()
T25870 001:071.377 JLINK_WriteReg(R0, 0x12000800)
T25870 001:071.395 - 0.017ms returns 0
T25870 001:071.411 JLINK_WriteReg(R1, 0x00000800)
T25870 001:071.428 - 0.016ms returns 0
T25870 001:071.442 JLINK_WriteReg(R2, 0x000000FF)
T25870 001:071.458 - 0.016ms returns 0
T25870 001:071.471 JLINK_WriteReg(R3, 0x00000000)
T25870 001:071.483 - 0.011ms returns 0
T25870 001:071.494 JLINK_WriteReg(R4, 0x00000000)
T25870 001:071.505 - 0.011ms returns 0
T25870 001:071.516 JLINK_WriteReg(R5, 0x00000000)
T25870 001:071.532 - 0.015ms returns 0
T25870 001:071.548 JLINK_WriteReg(R6, 0x00000000)
T25870 001:071.563 - 0.014ms returns 0
T25870 001:071.577 JLINK_WriteReg(R7, 0x00000000)
T25870 001:071.591 - 0.014ms returns 0
T25870 001:071.618 JLINK_WriteReg(R8, 0x00000000)
T25870 001:071.638 - 0.019ms returns 0
T25870 001:071.654 JLINK_WriteReg(R9, 0x180000A0)
T25870 001:071.670 - 0.016ms returns 0
T25870 001:071.685 JLINK_WriteReg(R10, 0x00000000)
T25870 001:071.699 - 0.014ms returns 0
T25870 001:071.712 JLINK_WriteReg(R11, 0x00000000)
T25870 001:071.723 - 0.010ms returns 0
T25870 001:071.738 JLINK_WriteReg(R12, 0x00000000)
T25870 001:071.752 - 0.014ms returns 0
T25870 001:071.764 JLINK_WriteReg(R13 (SP), 0x18000800)
T25870 001:071.783 - 0.018ms returns 0
T25870 001:071.793 JLINK_WriteReg(R14, 0x18000001)
T25870 001:071.804 - 0.010ms returns 0
T25870 001:071.816 JLINK_WriteReg(R15 (PC), 0x18000058)
T25870 001:071.830 - 0.014ms returns 0
T25870 001:071.844 JLINK_WriteReg(XPSR, 0x01000000)
T25870 001:071.855 - 0.011ms returns 0
T25870 001:071.870 JLINK_WriteReg(MSP, 0x18000800)
T25870 001:071.880 - 0.010ms returns 0
T25870 001:071.891 JLINK_WriteReg(PSP, 0x18000800)
T25870 001:071.902 - 0.011ms returns 0
T25870 001:071.914 JLINK_WriteReg(CFBP, 0x00000000)
T25870 001:071.927 - 0.013ms returns 0
T25870 001:071.940 JLINK_SetBPEx(Addr = 0x18000000, Type = 0xFFFFFFF2)
T25870 001:071.956 - 0.016ms returns 0x00000005
T25870 001:071.969 JLINK_Go()
T25870 001:071.983   CPU_WriteMem(4 bytes @ 0xE0002000)
T25870 001:072.533   CPU_ReadMem(4 bytes @ 0xE0001000)
T25870 001:078.097 - 6.128ms
T25870 001:078.138 JLINK_IsHalted()
T25870 001:078.655 - 0.516ms returns FALSE
T25870 001:078.693 JLINK_HasError()
T25870 001:082.504 JLINK_IsHalted()
T25870 001:087.710 - 5.204ms returns TRUE
T25870 001:087.753 JLINK_ReadReg(R15 (PC))
T25870 001:087.779   CPU_ReadMem(4 bytes @ 0xE000EE08)
T25870 001:088.293 - 0.539ms returns 0x18000000
T25870 001:088.327 JLINK_ClrBPEx(BPHandle = 0x00000005)
T25870 001:088.344 - 0.017ms returns 0x00
T25870 001:088.357 JLINK_ReadReg(R0)
T25870 001:088.370 - 0.012ms returns 0x00000000
T25870 001:089.330 JLINK_HasError()
T25870 001:089.362 JLINK_WriteReg(R0, 0x12001000)
T25870 001:089.381 - 0.018ms returns 0
T25870 001:089.393 JLINK_WriteReg(R1, 0x00000800)
T25870 001:089.404 - 0.011ms returns 0
T25870 001:089.416 JLINK_WriteReg(R2, 0x000000FF)
T25870 001:089.427 - 0.011ms returns 0
T25870 001:089.443 JLINK_WriteReg(R3, 0x00000000)
T25870 001:089.454 - 0.011ms returns 0
T25870 001:089.467 JLINK_WriteReg(R4, 0x00000000)
T25870 001:089.483 - 0.015ms returns 0
T25870 001:089.498 JLINK_WriteReg(R5, 0x00000000)
T25870 001:089.513 - 0.015ms returns 0
T25870 001:089.529 JLINK_WriteReg(R6, 0x00000000)
T25870 001:089.543 - 0.014ms returns 0
T25870 001:089.558 JLINK_WriteReg(R7, 0x00000000)
T25870 001:089.575 - 0.015ms returns 0
T25870 001:089.591 JLINK_WriteReg(R8, 0x00000000)
T25870 001:089.606 - 0.015ms returns 0
T25870 001:089.620 JLINK_WriteReg(R9, 0x180000A0)
T25870 001:089.632 - 0.011ms returns 0
T25870 001:089.646 JLINK_WriteReg(R10, 0x00000000)
T25870 001:089.657 - 0.011ms returns 0
T25870 001:089.670 JLINK_WriteReg(R11, 0x00000000)
T25870 001:089.683 - 0.012ms returns 0
T25870 001:089.694 JLINK_WriteReg(R12, 0x00000000)
T25870 001:089.705 - 0.011ms returns 0
T25870 001:089.717 JLINK_WriteReg(R13 (SP), 0x18000800)
T25870 001:089.729 - 0.012ms returns 0
T25870 001:089.741 JLINK_WriteReg(R14, 0x18000001)
T25870 001:089.753 - 0.011ms returns 0
T25870 001:089.764 JLINK_WriteReg(R15 (PC), 0x18000084)
T25870 001:089.776 - 0.011ms returns 0
T25870 001:089.787 JLINK_WriteReg(XPSR, 0x01000000)
T25870 001:089.799 - 0.011ms returns 0
T25870 001:089.810 JLINK_WriteReg(MSP, 0x18000800)
T25870 001:089.821 - 0.011ms returns 0
T25870 001:089.833 JLINK_WriteReg(PSP, 0x18000800)
T25870 001:089.844 - 0.011ms returns 0
T25870 001:089.856 JLINK_WriteReg(CFBP, 0x00000000)
T25870 001:089.867 - 0.011ms returns 0
T25870 001:089.879 JLINK_SetBPEx(Addr = 0x18000000, Type = 0xFFFFFFF2)
T25870 001:089.892 - 0.013ms returns 0x00000006
T25870 001:089.903 JLINK_Go()
T25870 001:089.921   CPU_WriteMem(4 bytes @ 0xE0002000)
T25870 001:090.567   CPU_ReadMem(4 bytes @ 0xE0001000)
T25870 001:096.173 - 6.267ms
T25870 001:096.220 JLINK_IsHalted()
T25870 001:101.490 - 5.267ms returns TRUE
T25870 001:101.540 JLINK_ReadReg(R15 (PC))
T25870 001:101.576   CPU_ReadMem(4 bytes @ 0xE000EE08)
T25870 001:102.147 - 0.605ms returns 0x18000000
T25870 001:102.181 JLINK_ClrBPEx(BPHandle = 0x00000006)
T25870 001:102.199 - 0.017ms returns 0x00
T25870 001:102.214 JLINK_ReadReg(R0)
T25870 001:102.239 - 0.025ms returns 0x00000001
T25870 001:102.254 JLINK_HasError()
T25870 001:102.270 JLINK_WriteReg(R0, 0x12001000)
T25870 001:102.286 - 0.016ms returns 0
T25870 001:102.300 JLINK_WriteReg(R1, 0x00000800)
T25870 001:102.314 - 0.014ms returns 0
T25870 001:102.331 JLINK_WriteReg(R2, 0x000000FF)
T25870 001:102.345 - 0.013ms returns 0
T25870 001:102.358 JLINK_WriteReg(R3, 0x00000000)
T25870 001:102.372 - 0.013ms returns 0
T25870 001:102.386 JLINK_WriteReg(R4, 0x00000000)
T25870 001:102.401 - 0.014ms returns 0
T25870 001:102.444 JLINK_WriteReg(R5, 0x00000000)
T25870 001:102.460 - 0.015ms returns 0
T25870 001:102.474 JLINK_WriteReg(R6, 0x00000000)
T25870 001:102.489 - 0.014ms returns 0
T25870 001:102.503 JLINK_WriteReg(R7, 0x00000000)
T25870 001:102.517 - 0.014ms returns 0
T25870 001:102.531 JLINK_WriteReg(R8, 0x00000000)
T25870 001:102.545 - 0.014ms returns 0
T25870 001:102.560 JLINK_WriteReg(R9, 0x180000A0)
T25870 001:102.575 - 0.015ms returns 0
T25870 001:102.589 JLINK_WriteReg(R10, 0x00000000)
T25870 001:102.606 - 0.017ms returns 0
T25870 001:102.621 JLINK_WriteReg(R11, 0x00000000)
T25870 001:102.635 - 0.013ms returns 0
T25870 001:102.648 JLINK_WriteReg(R12, 0x00000000)
T25870 001:102.662 - 0.014ms returns 0
T25870 001:102.676 JLINK_WriteReg(R13 (SP), 0x18000800)
T25870 001:102.691 - 0.014ms returns 0
T25870 001:102.704 JLINK_WriteReg(R14, 0x18000001)
T25870 001:102.718 - 0.014ms returns 0
T25870 001:102.732 JLINK_WriteReg(R15 (PC), 0x18000058)
T25870 001:102.746 - 0.014ms returns 0
T25870 001:102.760 JLINK_WriteReg(XPSR, 0x01000000)
T25870 001:102.775 - 0.014ms returns 0
T25870 001:102.789 JLINK_WriteReg(MSP, 0x18000800)
T25870 001:102.802 - 0.013ms returns 0
T25870 001:102.817 JLINK_WriteReg(PSP, 0x18000800)
T25870 001:102.831 - 0.014ms returns 0
T25870 001:102.845 JLINK_WriteReg(CFBP, 0x00000000)
T25870 001:102.859 - 0.014ms returns 0
T25870 001:102.873 JLINK_SetBPEx(Addr = 0x18000000, Type = 0xFFFFFFF2)
T25870 001:102.888 - 0.014ms returns 0x00000007
T25870 001:102.902 JLINK_Go()
T25870 001:102.919   CPU_WriteMem(4 bytes @ 0xE0002000)
T25870 001:103.469   CPU_ReadMem(4 bytes @ 0xE0001000)
T25870 001:109.088 - 6.184ms
T25870 001:109.145 JLINK_IsHalted()
T25870 001:109.690 - 0.542ms returns FALSE
T25870 001:109.738 JLINK_HasError()
T25870 001:113.532 JLINK_IsHalted()
T25870 001:118.789 - 5.255ms returns TRUE
T25870 001:118.840 JLINK_ReadReg(R15 (PC))
T25870 001:118.870   CPU_ReadMem(4 bytes @ 0xE000EE08)
T25870 001:119.426 - 0.585ms returns 0x18000000
T25870 001:119.468 JLINK_ClrBPEx(BPHandle = 0x00000007)
T25870 001:119.489 - 0.021ms returns 0x00
T25870 001:119.507 JLINK_ReadReg(R0)
T25870 001:119.526 - 0.018ms returns 0x00000000
T25870 001:120.476 JLINK_HasError()
T25870 001:120.536 JLINK_WriteReg(R0, 0x12001800)
T25870 001:120.582 - 0.045ms returns 0
T25870 001:120.599 JLINK_WriteReg(R1, 0x00000800)
T25870 001:120.615 - 0.016ms returns 0
T25870 001:120.631 JLINK_WriteReg(R2, 0x000000FF)
T25870 001:120.647 - 0.015ms returns 0
T25870 001:120.666 JLINK_WriteReg(R3, 0x00000000)
T25870 001:120.680 - 0.014ms returns 0
T25870 001:120.696 JLINK_WriteReg(R4, 0x00000000)
T25870 001:120.713 - 0.016ms returns 0
T25870 001:120.731 JLINK_WriteReg(R5, 0x00000000)
T25870 001:120.747 - 0.015ms returns 0
T25870 001:120.761 JLINK_WriteReg(R6, 0x00000000)
T25870 001:120.775 - 0.014ms returns 0
T25870 001:120.791 JLINK_WriteReg(R7, 0x00000000)
T25870 001:120.808 - 0.016ms returns 0
T25870 001:120.824 JLINK_WriteReg(R8, 0x00000000)
T25870 001:120.839 - 0.015ms returns 0
T25870 001:120.854 JLINK_WriteReg(R9, 0x180000A0)
T25870 001:120.870 - 0.016ms returns 0
T25870 001:120.886 JLINK_WriteReg(R10, 0x00000000)
T25870 001:120.902 - 0.015ms returns 0
T25870 001:120.917 JLINK_WriteReg(R11, 0x00000000)
T25870 001:120.932 - 0.014ms returns 0
T25870 001:120.947 JLINK_WriteReg(R12, 0x00000000)
T25870 001:120.968 - 0.020ms returns 0
T25870 001:120.983 JLINK_WriteReg(R13 (SP), 0x18000800)
T25870 001:121.000 - 0.016ms returns 0
T25870 001:121.141 JLINK_WriteReg(R14, 0x18000001)
T25870 001:121.165 - 0.023ms returns 0
T25870 001:121.182 JLINK_WriteReg(R15 (PC), 0x18000084)
T25870 001:121.199 - 0.018ms returns 0
T25870 001:121.216 JLINK_WriteReg(XPSR, 0x01000000)
T25870 001:121.233 - 0.017ms returns 0
T25870 001:121.249 JLINK_WriteReg(MSP, 0x18000800)
T25870 001:121.265 - 0.015ms returns 0
T25870 001:121.280 JLINK_WriteReg(PSP, 0x18000800)
T25870 001:121.296 - 0.016ms returns 0
T25870 001:121.312 JLINK_WriteReg(CFBP, 0x00000000)
T25870 001:121.328 - 0.015ms returns 0
T25870 001:121.345 JLINK_SetBPEx(Addr = 0x18000000, Type = 0xFFFFFFF2)
T25870 001:121.362 - 0.017ms returns 0x00000008
T25870 001:121.377 JLINK_Go()
T25870 001:121.401   CPU_WriteMem(4 bytes @ 0xE0002000)
T25870 001:121.962   CPU_ReadMem(4 bytes @ 0xE0001000)
T25870 001:127.654 - 6.275ms
T25870 001:127.694 JLINK_IsHalted()
T25870 001:132.879 - 5.184ms returns TRUE
T25870 001:132.929 JLINK_ReadReg(R15 (PC))
T25870 001:132.956   CPU_ReadMem(4 bytes @ 0xE000EE08)
T25870 001:133.490 - 0.560ms returns 0x18000000
T25870 001:133.523 JLINK_ClrBPEx(BPHandle = 0x00000008)
T25870 001:133.542 - 0.019ms returns 0x00
T25870 001:133.560 JLINK_ReadReg(R0)
T25870 001:133.579 - 0.019ms returns 0x00000001
T25870 001:133.597 JLINK_HasError()
T25870 001:133.615 JLINK_WriteReg(R0, 0x12001800)
T25870 001:133.634 - 0.018ms returns 0
T25870 001:133.652 JLINK_WriteReg(R1, 0x00000800)
T25870 001:133.669 - 0.016ms returns 0
T25870 001:133.685 JLINK_WriteReg(R2, 0x000000FF)
T25870 001:133.702 - 0.016ms returns 0
T25870 001:133.718 JLINK_WriteReg(R3, 0x00000000)
T25870 001:133.735 - 0.016ms returns 0
T25870 001:133.754 JLINK_WriteReg(R4, 0x00000000)
T25870 001:133.771 - 0.016ms returns 0
T25870 001:133.787 JLINK_WriteReg(R5, 0x00000000)
T25870 001:133.803 - 0.015ms returns 0
T25870 001:133.819 JLINK_WriteReg(R6, 0x00000000)
T25870 001:133.837 - 0.017ms returns 0
T25870 001:133.856 JLINK_WriteReg(R7, 0x00000000)
T25870 001:133.872 - 0.016ms returns 0
T25870 001:133.890 JLINK_WriteReg(R8, 0x00000000)
T25870 001:133.907 - 0.016ms returns 0
T25870 001:133.923 JLINK_WriteReg(R9, 0x180000A0)
T25870 001:133.940 - 0.017ms returns 0
T25870 001:133.959 JLINK_WriteReg(R10, 0x00000000)
T25870 001:133.976 - 0.016ms returns 0
T25870 001:133.993 JLINK_WriteReg(R11, 0x00000000)
T25870 001:134.011 - 0.018ms returns 0
T25870 001:134.027 JLINK_WriteReg(R12, 0x00000000)
T25870 001:134.044 - 0.016ms returns 0
T25870 001:134.060 JLINK_WriteReg(R13 (SP), 0x18000800)
T25870 001:134.079 - 0.018ms returns 0
T25870 001:134.096 JLINK_WriteReg(R14, 0x18000001)
T25870 001:134.113 - 0.017ms returns 0
T25870 001:134.131 JLINK_WriteReg(R15 (PC), 0x18000058)
T25870 001:134.147 - 0.016ms returns 0
T25870 001:134.163 JLINK_WriteReg(XPSR, 0x01000000)
T25870 001:134.180 - 0.017ms returns 0
T25870 001:134.196 JLINK_WriteReg(MSP, 0x18000800)
T25870 001:134.214 - 0.017ms returns 0
T25870 001:134.231 JLINK_WriteReg(PSP, 0x18000800)
T25870 001:134.248 - 0.016ms returns 0
T25870 001:134.265 JLINK_WriteReg(CFBP, 0x00000000)
T25870 001:134.282 - 0.017ms returns 0
T25870 001:134.299 JLINK_SetBPEx(Addr = 0x18000000, Type = 0xFFFFFFF2)
T25870 001:134.317 - 0.018ms returns 0x00000009
T25870 001:134.334 JLINK_Go()
T25870 001:134.355   CPU_WriteMem(4 bytes @ 0xE0002000)
T25870 001:135.004   CPU_ReadMem(4 bytes @ 0xE0001000)
T25870 001:140.616 - 6.281ms
T25870 001:140.670 JLINK_IsHalted()
T25870 001:141.185 - 0.516ms returns FALSE
T25870 001:141.222 JLINK_HasError()
T25870 001:147.473 JLINK_IsHalted()
T25870 001:152.711 - 5.237ms returns TRUE
T25870 001:152.764 JLINK_ReadReg(R15 (PC))
T25870 001:152.791   CPU_ReadMem(4 bytes @ 0xE000EE08)
T25870 001:153.324 - 0.558ms returns 0x18000000
T25870 001:153.360 JLINK_ClrBPEx(BPHandle = 0x00000009)
T25870 001:153.379 - 0.019ms returns 0x00
T25870 001:153.396 JLINK_ReadReg(R0)
T25870 001:153.416 - 0.019ms returns 0x00000000
T25870 001:154.398 JLINK_HasError()
T25870 001:154.434 JLINK_WriteReg(R0, 0x12002000)
T25870 001:154.457 - 0.023ms returns 0
T25870 001:154.478 JLINK_WriteReg(R1, 0x00000800)
T25870 001:154.498 - 0.019ms returns 0
T25870 001:154.515 JLINK_WriteReg(R2, 0x000000FF)
T25870 001:154.529 - 0.014ms returns 0
T25870 001:154.545 JLINK_WriteReg(R3, 0x00000000)
T25870 001:154.561 - 0.015ms returns 0
T25870 001:154.578 JLINK_WriteReg(R4, 0x00000000)
T25870 001:154.593 - 0.015ms returns 0
T25870 001:154.608 JLINK_WriteReg(R5, 0x00000000)
T25870 001:154.623 - 0.015ms returns 0
T25870 001:154.639 JLINK_WriteReg(R6, 0x00000000)
T25870 001:154.655 - 0.016ms returns 0
T25870 001:154.671 JLINK_WriteReg(R7, 0x00000000)
T25870 001:154.691 - 0.019ms returns 0
T25870 001:154.709 JLINK_WriteReg(R8, 0x00000000)
T25870 001:154.728 - 0.019ms returns 0
T25870 001:154.745 JLINK_WriteReg(R9, 0x180000A0)
T25870 001:154.762 - 0.016ms returns 0
T25870 001:154.784 JLINK_WriteReg(R10, 0x00000000)
T25870 001:154.801 - 0.017ms returns 0
T25870 001:154.822 JLINK_WriteReg(R11, 0x00000000)
T25870 001:154.838 - 0.016ms returns 0
T25870 001:154.858 JLINK_WriteReg(R12, 0x00000000)
T25870 001:154.878 - 0.019ms returns 0
T25870 001:154.895 JLINK_WriteReg(R13 (SP), 0x18000800)
T25870 001:154.916 - 0.021ms returns 0
T25870 001:154.936 JLINK_WriteReg(R14, 0x18000001)
T25870 001:154.957 - 0.020ms returns 0
T25870 001:154.974 JLINK_WriteReg(R15 (PC), 0x18000084)
T25870 001:154.995 - 0.020ms returns 0
T25870 001:155.015 JLINK_WriteReg(XPSR, 0x01000000)
T25870 001:155.032 - 0.017ms returns 0
T25870 001:155.053 JLINK_WriteReg(MSP, 0x18000800)
T25870 001:155.073 - 0.020ms returns 0
T25870 001:155.090 JLINK_WriteReg(PSP, 0x18000800)
T25870 001:155.107 - 0.017ms returns 0
T25870 001:155.123 JLINK_WriteReg(CFBP, 0x00000000)
T25870 001:155.140 - 0.016ms returns 0
T25870 001:155.168 JLINK_SetBPEx(Addr = 0x18000000, Type = 0xFFFFFFF2)
T25870 001:155.187 - 0.020ms returns 0x0000000A
T25870 001:155.203 JLINK_Go()
T25870 001:155.222   CPU_WriteMem(4 bytes @ 0xE0002000)
T25870 001:155.776   CPU_ReadMem(4 bytes @ 0xE0001000)
T25870 001:161.488 - 6.284ms
T25870 001:161.533 JLINK_IsHalted()
T25870 001:166.662 - 5.128ms returns TRUE
T25870 001:166.695 JLINK_ReadReg(R15 (PC))
T25870 001:166.713   CPU_ReadMem(4 bytes @ 0xE000EE08)
T25870 001:167.243 - 0.547ms returns 0x18000000
T25870 001:167.263 JLINK_ClrBPEx(BPHandle = 0x0000000A)
T25870 001:167.275 - 0.012ms returns 0x00
T25870 001:167.289 JLINK_ReadReg(R0)
T25870 001:167.302 - 0.012ms returns 0x00000001
T25870 001:167.316 JLINK_HasError()
T25870 001:167.329 JLINK_WriteReg(R0, 0x12002000)
T25870 001:167.342 - 0.012ms returns 0
T25870 001:167.355 JLINK_WriteReg(R1, 0x00000800)
T25870 001:167.367 - 0.011ms returns 0
T25870 001:167.381 JLINK_WriteReg(R2, 0x000000FF)
T25870 001:167.392 - 0.011ms returns 0
T25870 001:167.405 JLINK_WriteReg(R3, 0x00000000)
T25870 001:167.416 - 0.010ms returns 0
T25870 001:167.427 JLINK_WriteReg(R4, 0x00000000)
T25870 001:167.440 - 0.012ms returns 0
T25870 001:167.461 JLINK_WriteReg(R5, 0x00000000)
T25870 001:167.474 - 0.013ms returns 0
T25870 001:167.487 JLINK_WriteReg(R6, 0x00000000)
T25870 001:167.497 - 0.010ms returns 0
T25870 001:167.515 JLINK_WriteReg(R7, 0x00000000)
T25870 001:167.527 - 0.012ms returns 0
T25870 001:167.539 JLINK_WriteReg(R8, 0x00000000)
T25870 001:167.550 - 0.010ms returns 0
T25870 001:167.565 JLINK_WriteReg(R9, 0x180000A0)
T25870 001:167.580 - 0.015ms returns 0
T25870 001:167.593 JLINK_WriteReg(R10, 0x00000000)
T25870 001:167.604 - 0.011ms returns 0
T25870 001:167.617 JLINK_WriteReg(R11, 0x00000000)
T25870 001:167.628 - 0.011ms returns 0
T25870 001:167.641 JLINK_WriteReg(R12, 0x00000000)
T25870 001:167.652 - 0.011ms returns 0
T25870 001:167.665 JLINK_WriteReg(R13 (SP), 0x18000800)
T25870 001:167.676 - 0.011ms returns 0
T25870 001:167.689 JLINK_WriteReg(R14, 0x18000001)
T25870 001:167.701 - 0.012ms returns 0
T25870 001:167.715 JLINK_WriteReg(R15 (PC), 0x18000058)
T25870 001:167.732 - 0.017ms returns 0
T25870 001:167.745 JLINK_WriteReg(XPSR, 0x01000000)
T25870 001:167.781 - 0.036ms returns 0
T25870 001:167.799 JLINK_WriteReg(MSP, 0x18000800)
T25870 001:167.826 - 0.027ms returns 0
T25870 001:167.847 JLINK_WriteReg(PSP, 0x18000800)
T25870 001:167.862 - 0.015ms returns 0
T25870 001:167.880 JLINK_WriteReg(CFBP, 0x00000000)
T25870 001:167.897 - 0.016ms returns 0
T25870 001:167.976 JLINK_SetBPEx(Addr = 0x18000000, Type = 0xFFFFFFF2)
T25870 001:167.992 - 0.016ms returns 0x0000000B
T25870 001:168.009 JLINK_Go()
T25870 001:168.032   CPU_WriteMem(4 bytes @ 0xE0002000)
T25870 001:168.598   CPU_ReadMem(4 bytes @ 0xE0001000)
T25870 001:174.116 - 6.105ms
T25870 001:174.171 JLINK_IsHalted()
T25870 001:174.697 - 0.524ms returns FALSE
T25870 001:174.722 JLINK_HasError()
T25870 001:178.438 JLINK_IsHalted()
T25870 001:183.689 - 5.248ms returns TRUE
T25870 001:183.725 JLINK_ReadReg(R15 (PC))
T25870 001:183.742   CPU_ReadMem(4 bytes @ 0xE000EE08)
T25870 001:184.250 - 0.524ms returns 0x18000000
T25870 001:184.263 JLINK_ClrBPEx(BPHandle = 0x0000000B)
T25870 001:184.278 - 0.014ms returns 0x00
T25870 001:184.290 JLINK_ReadReg(R0)
T25870 001:184.341 - 0.051ms returns 0x00000000
T25870 001:185.388 JLINK_HasError()
T25870 001:185.435 JLINK_WriteReg(R0, 0x12002800)
T25870 001:185.462 - 0.026ms returns 0
T25870 001:185.479 JLINK_WriteReg(R1, 0x00000800)
T25870 001:185.496 - 0.016ms returns 0
T25870 001:185.514 JLINK_WriteReg(R2, 0x000000FF)
T25870 001:185.532 - 0.017ms returns 0
T25870 001:185.549 JLINK_WriteReg(R3, 0x00000000)
T25870 001:185.566 - 0.016ms returns 0
T25870 001:185.715 JLINK_WriteReg(R4, 0x00000000)
T25870 001:185.732 - 0.016ms returns 0
T25870 001:185.749 JLINK_WriteReg(R5, 0x00000000)
T25870 001:185.767 - 0.018ms returns 0
T25870 001:185.785 JLINK_WriteReg(R6, 0x00000000)
T25870 001:185.803 - 0.015ms returns 0
T25870 001:185.820 JLINK_WriteReg(R7, 0x00000000)
T25870 001:185.837 - 0.017ms returns 0
T25870 001:185.855 JLINK_WriteReg(R8, 0x00000000)
T25870 001:185.872 - 0.017ms returns 0
T25870 001:185.888 JLINK_WriteReg(R9, 0x180000A0)
T25870 001:185.904 - 0.016ms returns 0
T25870 001:185.921 JLINK_WriteReg(R10, 0x00000000)
T25870 001:185.940 - 0.019ms returns 0
T25870 001:185.957 JLINK_WriteReg(R11, 0x00000000)
T25870 001:185.977 - 0.019ms returns 0
T25870 001:185.994 JLINK_WriteReg(R12, 0x00000000)
T25870 001:186.011 - 0.016ms returns 0
T25870 001:186.028 JLINK_WriteReg(R13 (SP), 0x18000800)
T25870 001:186.047 - 0.018ms returns 0
T25870 001:186.064 JLINK_WriteReg(R14, 0x18000001)
T25870 001:186.085 - 0.020ms returns 0
T25870 001:186.149 JLINK_WriteReg(R15 (PC), 0x18000084)
T25870 001:186.171 - 0.022ms returns 0
T25870 001:186.189 JLINK_WriteReg(XPSR, 0x01000000)
T25870 001:186.207 - 0.018ms returns 0
T25870 001:186.224 JLINK_WriteReg(MSP, 0x18000800)
T25870 001:186.241 - 0.017ms returns 0
T25870 001:186.258 JLINK_WriteReg(PSP, 0x18000800)
T25870 001:186.275 - 0.017ms returns 0
T25870 001:186.292 JLINK_WriteReg(CFBP, 0x00000000)
T25870 001:186.309 - 0.016ms returns 0
T25870 001:186.327 JLINK_SetBPEx(Addr = 0x18000000, Type = 0xFFFFFFF2)
T25870 001:186.345 - 0.018ms returns 0x0000000C
T25870 001:186.394 JLINK_Go()
T25870 001:186.420   CPU_WriteMem(4 bytes @ 0xE0002000)
T25870 001:186.987   CPU_ReadMem(4 bytes @ 0xE0001000)
T25870 001:192.491 - 6.095ms
T25870 001:192.544 JLINK_IsHalted()
T25870 001:197.706 - 5.159ms returns TRUE
T25870 001:197.761 JLINK_ReadReg(R15 (PC))
T25870 001:197.786   CPU_ReadMem(4 bytes @ 0xE000EE08)
T25870 001:198.323 - 0.561ms returns 0x18000000
T25870 001:198.375 JLINK_ClrBPEx(BPHandle = 0x0000000C)
T25870 001:198.402 - 0.027ms returns 0x00
T25870 001:198.419 JLINK_ReadReg(R0)
T25870 001:198.439 - 0.019ms returns 0x00000001
T25870 001:198.457 JLINK_HasError()
T25870 001:198.474 JLINK_WriteReg(R0, 0x12002800)
T25870 001:198.492 - 0.018ms returns 0
T25870 001:198.509 JLINK_WriteReg(R1, 0x00000800)
T25870 001:198.527 - 0.017ms returns 0
T25870 001:198.543 JLINK_WriteReg(R2, 0x000000FF)
T25870 001:198.558 - 0.015ms returns 0
T25870 001:198.574 JLINK_WriteReg(R3, 0x00000000)
T25870 001:198.591 - 0.017ms returns 0
T25870 001:198.608 JLINK_WriteReg(R4, 0x00000000)
T25870 001:198.636 - 0.027ms returns 0
T25870 001:198.653 JLINK_WriteReg(R5, 0x00000000)
T25870 001:198.670 - 0.017ms returns 0
T25870 001:198.687 JLINK_WriteReg(R6, 0x00000000)
T25870 001:198.704 - 0.016ms returns 0
T25870 001:198.721 JLINK_WriteReg(R7, 0x00000000)
T25870 001:198.739 - 0.017ms returns 0
T25870 001:198.755 JLINK_WriteReg(R8, 0x00000000)
T25870 001:198.772 - 0.017ms returns 0
T25870 001:198.789 JLINK_WriteReg(R9, 0x180000A0)
T25870 001:198.806 - 0.016ms returns 0
T25870 001:198.825 JLINK_WriteReg(R10, 0x00000000)
T25870 001:198.842 - 0.017ms returns 0
T25870 001:198.859 JLINK_WriteReg(R11, 0x00000000)
T25870 001:198.876 - 0.016ms returns 0
T25870 001:198.893 JLINK_WriteReg(R12, 0x00000000)
T25870 001:198.914 - 0.020ms returns 0
T25870 001:198.929 JLINK_WriteReg(R13 (SP), 0x18000800)
T25870 001:198.948 - 0.018ms returns 0
T25870 001:198.965 JLINK_WriteReg(R14, 0x18000001)
T25870 001:198.983 - 0.017ms returns 0
T25870 001:199.001 JLINK_WriteReg(R15 (PC), 0x18000058)
T25870 001:199.019 - 0.017ms returns 0
T25870 001:199.035 JLINK_WriteReg(XPSR, 0x01000000)
T25870 001:199.051 - 0.016ms returns 0
T25870 001:199.067 JLINK_WriteReg(MSP, 0x18000800)
T25870 001:199.085 - 0.017ms returns 0
T25870 001:199.104 JLINK_WriteReg(PSP, 0x18000800)
T25870 001:199.121 - 0.017ms returns 0
T25870 001:199.138 JLINK_WriteReg(CFBP, 0x00000000)
T25870 001:199.157 - 0.019ms returns 0
T25870 001:199.175 JLINK_SetBPEx(Addr = 0x18000000, Type = 0xFFFFFFF2)
T25870 001:199.194 - 0.019ms returns 0x0000000D
T25870 001:199.211 JLINK_Go()
T25870 001:199.234   CPU_WriteMem(4 bytes @ 0xE0002000)
T25870 001:199.805   CPU_ReadMem(4 bytes @ 0xE0001000)
T25870 001:205.494 - 6.281ms
T25870 001:205.556 JLINK_IsHalted()
T25870 001:206.084 - 0.527ms returns FALSE
T25870 001:206.112 JLINK_HasError()
T25870 001:211.822 JLINK_IsHalted()
T25870 001:217.112 - 5.288ms returns TRUE
T25870 001:217.174 JLINK_ReadReg(R15 (PC))
T25870 001:217.198   CPU_ReadMem(4 bytes @ 0xE000EE08)
T25870 001:217.728 - 0.554ms returns 0x18000000
T25870 001:217.750 JLINK_ClrBPEx(BPHandle = 0x0000000D)
T25870 001:217.771 - 0.021ms returns 0x00
T25870 001:217.790 JLINK_ReadReg(R0)
T25870 001:217.807 - 0.016ms returns 0x00000000
T25870 001:218.992 JLINK_HasError()
T25870 001:219.036 JLINK_WriteReg(R0, 0x12003000)
T25870 001:219.057 - 0.021ms returns 0
T25870 001:219.069 JLINK_WriteReg(R1, 0x00000800)
T25870 001:219.080 - 0.011ms returns 0
T25870 001:219.091 JLINK_WriteReg(R2, 0x000000FF)
T25870 001:219.102 - 0.010ms returns 0
T25870 001:219.113 JLINK_WriteReg(R3, 0x00000000)
T25870 001:219.123 - 0.010ms returns 0
T25870 001:219.135 JLINK_WriteReg(R4, 0x00000000)
T25870 001:219.145 - 0.010ms returns 0
T25870 001:219.156 JLINK_WriteReg(R5, 0x00000000)
T25870 001:219.167 - 0.010ms returns 0
T25870 001:219.178 JLINK_WriteReg(R6, 0x00000000)
T25870 001:219.189 - 0.010ms returns 0
T25870 001:219.200 JLINK_WriteReg(R7, 0x00000000)
T25870 001:219.214 - 0.014ms returns 0
T25870 001:219.225 JLINK_WriteReg(R8, 0x00000000)
T25870 001:219.236 - 0.010ms returns 0
T25870 001:219.247 JLINK_WriteReg(R9, 0x180000A0)
T25870 001:219.258 - 0.010ms returns 0
T25870 001:219.269 JLINK_WriteReg(R10, 0x00000000)
T25870 001:219.280 - 0.010ms returns 0
T25870 001:219.291 JLINK_WriteReg(R11, 0x00000000)
T25870 001:219.301 - 0.010ms returns 0
T25870 001:219.312 JLINK_WriteReg(R12, 0x00000000)
T25870 001:219.323 - 0.010ms returns 0
T25870 001:219.334 JLINK_WriteReg(R13 (SP), 0x18000800)
T25870 001:219.346 - 0.011ms returns 0
T25870 001:219.357 JLINK_WriteReg(R14, 0x18000001)
T25870 001:219.368 - 0.010ms returns 0
T25870 001:219.379 JLINK_WriteReg(R15 (PC), 0x18000084)
T25870 001:219.390 - 0.011ms returns 0
T25870 001:219.401 JLINK_WriteReg(XPSR, 0x01000000)
T25870 001:219.412 - 0.010ms returns 0
T25870 001:219.423 JLINK_WriteReg(MSP, 0x18000800)
T25870 001:219.434 - 0.010ms returns 0
T25870 001:219.445 JLINK_WriteReg(PSP, 0x18000800)
T25870 001:219.456 - 0.010ms returns 0
T25870 001:219.467 JLINK_WriteReg(CFBP, 0x00000000)
T25870 001:219.485 - 0.018ms returns 0
T25870 001:219.498 JLINK_SetBPEx(Addr = 0x18000000, Type = 0xFFFFFFF2)
T25870 001:219.511 - 0.012ms returns 0x0000000E
T25870 001:219.525 JLINK_Go()
T25870 001:219.540   CPU_WriteMem(4 bytes @ 0xE0002000)
T25870 001:220.072   CPU_ReadMem(4 bytes @ 0xE0001000)
T25870 001:225.650 - 6.123ms
T25870 001:225.695 JLINK_IsHalted()
T25870 001:230.972 - 5.275ms returns TRUE
T25870 001:231.038 JLINK_ReadReg(R15 (PC))
T25870 001:231.069   CPU_ReadMem(4 bytes @ 0xE000EE08)
T25870 001:231.598 - 0.559ms returns 0x18000000
T25870 001:231.619 JLINK_ClrBPEx(BPHandle = 0x0000000E)
T25870 001:231.640 - 0.020ms returns 0x00
T25870 001:231.660 JLINK_ReadReg(R0)
T25870 001:231.679 - 0.018ms returns 0x00000001
T25870 001:231.698 JLINK_HasError()
T25870 001:231.720 JLINK_WriteReg(R0, 0x12003000)
T25870 001:231.744 - 0.020ms returns 0
T25870 001:231.761 JLINK_WriteReg(R1, 0x00000800)
T25870 001:231.779 - 0.017ms returns 0
T25870 001:231.804 JLINK_WriteReg(R2, 0x000000FF)
T25870 001:231.821 - 0.017ms returns 0
T25870 001:231.840 JLINK_WriteReg(R3, 0x00000000)
T25870 001:231.860 - 0.020ms returns 0
T25870 001:231.879 JLINK_WriteReg(R4, 0x00000000)
T25870 001:231.897 - 0.017ms returns 0
T25870 001:231.915 JLINK_WriteReg(R5, 0x00000000)
T25870 001:231.935 - 0.020ms returns 0
T25870 001:231.954 JLINK_WriteReg(R6, 0x00000000)
T25870 001:231.973 - 0.019ms returns 0
T25870 001:231.995 JLINK_WriteReg(R7, 0x00000000)
T25870 001:232.013 - 0.017ms returns 0
T25870 001:232.032 JLINK_WriteReg(R8, 0x00000000)
T25870 001:232.052 - 0.020ms returns 0
T25870 001:232.071 JLINK_WriteReg(R9, 0x180000A0)
T25870 001:232.089 - 0.017ms returns 0
T25870 001:232.108 JLINK_WriteReg(R10, 0x00000000)
T25870 001:232.129 - 0.021ms returns 0
T25870 001:232.148 JLINK_WriteReg(R11, 0x00000000)
